Circuit: * C:\Users\Lukas\Documents\RP2040_AS3394\spice files\Mod_Amt.asc

Direct Newton iteration for .op point succeeded.
Semiconductor Device Operating Points:
                        --- Diodes ---
Name:    d:u1:3      d:u1:4      d:u1:6      d:u1:5      d:u1:2
Model:    u1:dx       u1:dx       u1:dx       u1:dx       u1:dx
Id:     -1.91e-13   -3.51e-13    5.74e-04    1.69e-06   -1.14e-11
Vd:     -1.90e-01   -3.50e-01    7.00e-01    5.50e-01   -1.14e+01
Req:     1.00e+12    1.00e+12    4.50e+01    1.53e+04    1.00e+12
CAP:     0.00e+00    0.00e+00    0.00e+00    0.00e+00    0.00e+00

Name:    d:u1:1
Model:    u1:dx
Id:      8.88e-05
Vd:      6.52e-01
Req:     2.91e+02
CAP:     0.00e+00

                        --- Bipolar Transistors ---
Name:     q:u1:2      q:u1:1
Model:     u1:qx       u1:qx
Ib:      -2.37e-09   -8.75e-08
Ic:      -2.64e-06   -9.73e-05
Vbe:     -6.21e-01   -7.14e-01
Vbc:      9.80e+00    9.66e+00
Vce:     -1.04e+01   -1.04e+01
BetaDC:   1.12e+03    1.11e+03
Gm:       1.02e-04    3.76e-03
Rpi:      1.09e+07    2.95e+05
Rx:       0.00e+00    0.00e+00
Ro:       0.00e+00    0.00e+00
Cbe:      0.00e+00    0.00e+00
Cbc:      0.00e+00    0.00e+00
Cjs:      0.00e+00    0.00e+00
BetaAC:   1.11e+03    1.11e+03
Cbx:      0.00e+00    0.00e+00
Ft:       0.00e+00    0.00e+00



Date: Sat Sep 10 19:15:03 2022
Total elapsed time: 0.031 seconds.

tnom = 27
temp = 27
method = trap
totiter = 40
traniter = 0
tranpoints = 0
accept = 0
rejected = 0
matrix size = 39
fillins = 41
solver = Normal
Matrix Compiler1: 3.65 KB object code size
Matrix Compiler2:     299 opcodes
